
**** 07/22/21 18:52:28 *********** Evaluation PSpice (Nov 1999) **************

 *Netlist do circuito de thevenan. Trabalho SPICE-SEL0602. 


 ****     CIRCUIT DESCRIPTION


******************************************************************************



*Francisco Reis Nogueira 11954374

*Fonte de tensao
V1 1 0 AC 74 SIN(0 74 0.31830 0 0 90)

*Fonte de corrente
I1 0 4 AC 3 -74 SIN(0 3 0.31830 0 0 16)

*Resistores
R1 1 2 2
R2 4 5 1

*Indutores
L1 2 3 0.5
L3 5 0 1

*Capacitores
C1 3 0 0.5

V2 3 4 DC 0

.AC LIN 1 0.31830 0.31830
.TRAN .05 12 3

.PRINT AC I(V2) IP(V2)

.PROBE
.END

**** 07/22/21 18:52:28 *********** Evaluation PSpice (Nov 1999) **************

 *Netlist do circuito de thevenan. Trabalho SPICE-SEL0602. 


 ****     SMALL SIGNAL BIAS SOLUTION       TEMPERATURE =   27.000 DEG C


******************************************************************************



 NODE   VOLTAGE     NODE   VOLTAGE     NODE   VOLTAGE     NODE   VOLTAGE


(    1)    0.0000  (    2)    0.0000  (    3)    0.0000  (    4)    0.0000      

(    5)    0.0000  




    VOLTAGE SOURCE CURRENTS
    NAME         CURRENT

    V1           0.000E+00
    V2           0.000E+00

    TOTAL POWER DISSIPATION   0.00E+00  WATTS


**** 07/22/21 18:52:28 *********** Evaluation PSpice (Nov 1999) **************

 *Netlist do circuito de thevenan. Trabalho SPICE-SEL0602. 


 ****     AC ANALYSIS                      TEMPERATURE =   27.000 DEG C


******************************************************************************



  FREQ        I(V2)       IP(V2)      


   3.183E-01   2.018E+01  -1.341E+02

**** 07/22/21 18:52:28 *********** Evaluation PSpice (Nov 1999) **************

 *Netlist do circuito de thevenan. Trabalho SPICE-SEL0602. 


 ****     INITIAL TRANSIENT SOLUTION       TEMPERATURE =   27.000 DEG C


******************************************************************************



 NODE   VOLTAGE     NODE   VOLTAGE     NODE   VOLTAGE     NODE   VOLTAGE


(    1)   74.0000  (    2)   25.2180  (    3)   25.2180  (    4)   25.2180      

(    5)    0.0000  




    VOLTAGE SOURCE CURRENTS
    NAME         CURRENT

    V1          -2.439E+01
    V2           2.439E+01

    TOTAL POWER DISSIPATION   1.80E+03  WATTS



          JOB CONCLUDED

          TOTAL JOB TIME            0.00
