
**** 07/22/21 18:50:27 *********** Evaluation PSpice (Nov 1999) **************

 *Netlist do circuito de thevenan. Trabalho SPICE-SEL0602. 


 ****     CIRCUIT DESCRIPTION


******************************************************************************



*Francisco Reis Nogueira 11954374

*Fonte de tensao
V1 1 0 AC 74 SIN(0 74 0.31830 0 0 90)

*Fonte de corrente
I1 0 4 AC 3 -74 SIN(0 3 0.31830 0 0 16)

*Resistores
R1 1 2 2
R2 3 5 1
R3 4 6 1

*Indutores
L1 2 3 0.5
L2 5 4 0.5
L3 6 0 1

*Capacitores
C1 3 0 0.5

.AC LIN 1 0.31830 0.31830
.TRAN .05 12 3

.PRINT AC V(3,4) VP(3,4)

.PROBE
.END

**** 07/22/21 18:50:27 *********** Evaluation PSpice (Nov 1999) **************

 *Netlist do circuito de thevenan. Trabalho SPICE-SEL0602. 


 ****     SMALL SIGNAL BIAS SOLUTION       TEMPERATURE =   27.000 DEG C


******************************************************************************



 NODE   VOLTAGE     NODE   VOLTAGE     NODE   VOLTAGE     NODE   VOLTAGE


(    1)    0.0000  (    2)    0.0000  (    3)    0.0000  (    4)    0.0000      

(    5)    0.0000  (    6)    0.0000  




    VOLTAGE SOURCE CURRENTS
    NAME         CURRENT

    V1           0.000E+00

    TOTAL POWER DISSIPATION   0.00E+00  WATTS


**** 07/22/21 18:50:27 *********** Evaluation PSpice (Nov 1999) **************

 *Netlist do circuito de thevenan. Trabalho SPICE-SEL0602. 


 ****     AC ANALYSIS                      TEMPERATURE =   27.000 DEG C


******************************************************************************



  FREQ        V(3,4)      VP(3,4)     


   3.183E-01   1.607E+01  -9.410E+01

**** 07/22/21 18:50:27 *********** Evaluation PSpice (Nov 1999) **************

 *Netlist do circuito de thevenan. Trabalho SPICE-SEL0602. 


 ****     INITIAL TRANSIENT SOLUTION       TEMPERATURE =   27.000 DEG C


******************************************************************************



 NODE   VOLTAGE     NODE   VOLTAGE     NODE   VOLTAGE     NODE   VOLTAGE


(    1)   74.0000  (    2)   37.4130  (    3)   37.4130  (    4)   19.1200      

(    5)   19.1200  (    6)    0.0000  




    VOLTAGE SOURCE CURRENTS
    NAME         CURRENT

    V1          -1.829E+01

    TOTAL POWER DISSIPATION   1.35E+03  WATTS



          JOB CONCLUDED

          TOTAL JOB TIME            0.00
